
T3C28 000:001 SEGGER J-Link V6.32 Log File (0000ms, 0001ms total)
T3C28 000:001 DLL Compiled: Apr 20 2018 17:25:02 (0000ms, 0001ms total)
T3C28 000:001 Logging started @ 2026-04-16 22:51 (0000ms, 0001ms total)
T3C28 000:001 JLINK_SetWarnOutHandler(...) (0000ms, 0001ms total)
T3C28 000:001 JLINK_OpenEx(...)
Firmware: J-Link V9 compiled May  7 2021 16:26:12
Hardware: V9.60
S/N: 69650047
Feature(s): RDI, GDB, FlashDL, FlashBP, JFlash
TELNET listener socket opened on port 19021WEBSRV 
Starting webserver (0019ms, 0020ms total)
T3C28 000:001 WEBSRV Webserver running on local port 19080 (0019ms, 0020ms total)
T3C28 000:001   returns O.K. (0019ms, 0020ms total)
T3C28 000:020 JLINK_GetEmuCaps()  returns 0xB9FF7BBF (0000ms, 0020ms total)
T3C28 000:020 JLINK_TIF_GetAvailable(...) (0001ms, 0021ms total)
T3C28 000:021 JLINK_SetErrorOutHandler(...) (0000ms, 0021ms total)
T3C28 000:021 JLINK_ExecCommand("ProjectFile = "C:\Milandr_Keil_Projects\001_Milandr_Leds\JLinkSettings.ini"", ...). Ref file found at: C:\Keil_v5\ARM\Segger\JLinkDevices.ref (0100ms, 0121ms total)
T3C28 000:021 XML referenced by ref file: C:\Program Files (x86)\SEGGER\JLink_V632\JLinkDevices.xml (0100ms, 0121ms total)
T3C28 000:021 XML file found at: C:\Keil_v5\ARM\Segger\JLinkDevices.xml (0100ms, 0121ms total)
T3C28 000:021 Ignoring XML in DLL dir and using ref file instead (0100ms, 0121ms total)
T3C28 000:021 C:\Program Files (x86)\SEGGER\JLink_V632\JLinkDevices.xml evaluated successfully.Device "CORTEX-M3" selected.  returns 0x00 (0137ms, 0158ms total)
T3C28 000:161 JLINK_ExecCommand("Device = MDR32F9Q2I", ...). Device "CORTEX-M3" selected.  returns 0x00 (0003ms, 0162ms total)
T3C28 000:165 JLINK_ExecCommand("DisableConnectionTimeout", ...).   returns 0x01 (0000ms, 0162ms total)
T3C28 000:165 JLINK_GetHardwareVersion()  returns 0x17700 (0000ms, 0162ms total)
T3C28 000:165 JLINK_GetDLLVersion()  returns 63200 (0000ms, 0162ms total)
T3C28 000:165 JLINK_GetFirmwareString(...) (0000ms, 0162ms total)
T3C28 000:180 JLINK_GetDLLVersion()  returns 63200 (0000ms, 0162ms total)
T3C28 000:180 JLINK_GetCompileDateTime() (0000ms, 0162ms total)
T3C28 000:183 JLINK_GetFirmwareString(...) (0000ms, 0162ms total)
T3C28 000:185 JLINK_GetHardwareVersion()  returns 0x17700 (0000ms, 0162ms total)
T3C28 000:201 JLINK_TIF_Select(JLINKARM_TIF_JTAG)  returns 0x00 (0002ms, 0164ms total)
T3C28 000:203 JLINK_SetSpeed(5000) (0001ms, 0165ms total)
T3C28 000:204 JLINK_GetIdData(...) >0x2F8 JTAG>TotalIRLen = 4, IRPrint = 0x01 >0x30 JTAG> >0x30 JTAG>JTAG chain detection found 1 devices: #0 Id: 0x4BA00477, IRLen: 04, CoreSight JTAG-DPScanning AP map to find all available APs >0x78 JTAG> >0x48 JTAG> >0x40 JTAG> >0x40 JTAG> >0x48 JTAG> >0x40 JTAG>AP[1]: Stopped AP scan as end of AP map has been reachedAP[0]: AHB-AP (IDR: 0x24770011)Iterating through AP map to find AHB-AP to use >0x78 JTAG> >0x48 JTAG> >0x48 JTAG> >0x78 JTAG> >0x40 JTAG> >0x30 JTAG>
 >0x40 JTAG> >0x40 JTAG>AP[0]: Core foundAP[0]: AHB-AP ROM base: 0xE00FF000 >0x40 JTAG> >0x40 JTAG> >0x30 JTAG> >0x40 JTAG> >0x40 JTAG>CPUID register: 0x412FC230. Implementer code: 0x41 (ARM)Found Cortex-M3 r2p0, Little endian. -- CPU_ReadMem(4 bytes @ 0xE000EDF0) -- CPU_WriteMem(4 bytes @ 0xE000EDF0) -- CPU_ReadMem(4 bytes @ 0xE0002000)FPUnit: 6 code (BP) slots and 2 literal slots -- CPU_ReadMem(4 bytes @ 0xE000EDFC) -- CPU_WriteMem(4 bytes @ 0xE000EDFC) -- CPU_ReadMem(4 bytes @ 0xE0001000)
 -- CPU_WriteMem(4 bytes @ 0xE0001000) -- CPU_ReadMem(4 bytes @ 0xE000ED88) -- CPU_WriteMem(4 bytes @ 0xE000ED88) -- CPU_ReadMem(4 bytes @ 0xE000ED88) -- CPU_WriteMem(4 bytes @ 0xE000ED88)CoreSight components:ROMTbl[0] @ E00FF000 -- CPU_ReadMem(16 bytes @ 0xE00FF000) -- CPU_ReadMem(16 bytes @ 0xE000EFF0) -- CPU_ReadMem(16 bytes @ 0xE000EFE0)ROMTbl[0][0]: E000E000, CID: B105E00D, PID: 002BB000 SCS -- CPU_ReadMem(16 bytes @ 0xE0001FF0) -- CPU_ReadMem(16 bytes @ 0xE0001FE0)
ROMTbl[0][1]: E0001000, CID: B105E00D, PID: 002BB002 DWT -- CPU_ReadMem(16 bytes @ 0xE0002FF0) -- CPU_ReadMem(16 bytes @ 0xE0002FE0)ROMTbl[0][2]: E0002000, CID: B105E00D, PID: 002BB003 FPB -- CPU_ReadMem(16 bytes @ 0xE0000FF0) -- CPU_ReadMem(16 bytes @ 0xE0000FE0)ROMTbl[0][3]: E0000000, CID: B105E00D, PID: 002BB001 ITM -- CPU_ReadMem(16 bytes @ 0xE00FF010) -- CPU_ReadMem(16 bytes @ 0xE0040FF0) -- CPU_ReadMem(16 bytes @ 0xE0040FE0)ROMTbl[0][4]: E0040000, CID: B105900D, PID: 002BB923 TPIU-Lite ScanLen=4
 NumDevices=1 aId[0]=0x4BA00477 aIrRead[0]=0 aScanLen[0]=0 aScanRead[0]=0 (0087ms, 0252ms total)
T3C28 000:291 JLINK_JTAG_GetDeviceID(DeviceIndex = 0)  returns 0x4BA00477 (0000ms, 0252ms total)
T3C28 000:291 JLINK_JTAG_GetDeviceInfo(DeviceIndex = 0)  returns 0x00 (0000ms, 0252ms total)
T3C28 000:291 JLINK_GetDLLVersion()  returns 63200 (0000ms, 0252ms total)
T3C28 000:291 JLINK_CORE_GetFound()  returns 0x30000FF (0000ms, 0252ms total)
T3C28 000:291 JLINK_GetDebugInfo(0x100 = JLINKARM_ROM_TABLE_ADDR_INDEX) -- Value=0xE00FF000  returns 0x00 (0000ms, 0252ms total)
T3C28 000:295 JLINK_GetDebugInfo(0x100 = JLINKARM_ROM_TABLE_ADDR_INDEX) -- Value=0xE00FF000  returns 0x00 (0000ms, 0252ms total)
T3C28 000:295 JLINK_GetDebugInfo(0x101 = JLINKARM_DEBUG_INFO_ETM_ADDR_INDEX) -- Value=0x00000000  returns 0x00 (0000ms, 0252ms total)
T3C28 000:295 JLINK_ReadMemEx(0xE0041FF0, 0x0010 Bytes, ..., Flags = 0x02000004) -- CPU_ReadMem(16 bytes @ 0xE0041FF0) - Data: 00 00 00 00 00 00 00 00 00 00 00 00 00 00 00 00  returns 0x10 (0001ms, 0253ms total)
T3C28 000:296 JLINK_GetDebugInfo(0x102 = JLINKARM_DEBUG_INFO_MTB_ADDR_INDEX) -- Value=0x00000000  returns 0x00 (0000ms, 0253ms total)
T3C28 000:296 JLINK_GetDebugInfo(0x103 = JLINKARM_DEBUG_INFO_TPIU_ADDR_INDEX) -- Value=0xE0040000  returns 0x00 (0000ms, 0253ms total)
T3C28 000:296 JLINK_GetDebugInfo(0x104 = JLINKARM_DEBUG_INFO_ITM_ADDR_INDEX) -- Value=0xE0000000  returns 0x00 (0000ms, 0253ms total)
T3C28 000:296 JLINK_GetDebugInfo(0x105 = JLINKARM_DEBUG_INFO_DWT_ADDR_INDEX) -- Value=0xE0001000  returns 0x00 (0000ms, 0253ms total)
T3C28 000:296 JLINK_GetDebugInfo(0x106 = JLINKARM_DEBUG_INFO_FPB_ADDR_INDEX) -- Value=0xE0002000  returns 0x00 (0000ms, 0253ms total)
T3C28 000:296 JLINK_GetDebugInfo(0x107 = JLINKARM_DEBUG_INFO_NVIC_ADDR_INDEX) -- Value=0xE000E000  returns 0x00 (0000ms, 0253ms total)
T3C28 000:296 JLINK_GetDebugInfo(0x10C = JLINKARM_DEBUG_INFO_DBG_ADDR_INDEX) -- Value=0xE000EDF0  returns 0x00 (0000ms, 0253ms total)
T3C28 000:296 JLINK_GetDebugInfo(0x01 = Unknown) -- Value=0x00000000  returns 0x00 (0000ms, 0253ms total)
T3C28 000:296 JLINK_ReadMemU32(0xE000ED00, 0x0001 Items, ...) -- CPU_ReadMem(4 bytes @ 0xE000ED00) - Data: 30 C2 2F 41  returns 0x01 (0001ms, 0254ms total)
T3C28 000:297 JLINK_GetDebugInfo(0x10F = JLINKARM_DEBUG_INFO_HAS_CORTEX_M_SECURITY_EXT_INDEX) -- Value=0x00000000  returns 0x00 (0000ms, 0254ms total)
T3C28 000:297 JLINK_SetResetType(JLINKARM_CM3_RESET_TYPE_NORMAL)  returns JLINKARM_CM3_RESET_TYPE_NORMAL (0000ms, 0254ms total)
T3C28 000:297 JLINK_Reset() -- CPU is running -- CPU_WriteMem(4 bytes @ 0xE000EDF0) -- CPU is running -- CPU_WriteMem(4 bytes @ 0xE000EDFC)Reset: Halt core after reset via DEMCR.VC_CORERESET.Reset: Reset device via AIRCR.SYSRESETREQ. -- CPU is running -- CPU_WriteMem(4 bytes @ 0xE000ED0C) -- CPU_ReadMem(4 bytes @ 0xE000EDF0) -- CPU_ReadMem(4 bytes @ 0xE000EDF0) -- CPU is running -- CPU_WriteMem(4 bytes @ 0xE000EDF0) -- CPU is running -- CPU_WriteMem(4 bytes @ 0xE000EDFC)
 -- CPU_ReadMem(4 bytes @ 0xE000EDF0) -- CPU_WriteMem(4 bytes @ 0xE000EDFC) -- CPU_WriteMem(4 bytes @ 0xE0001028) -- CPU_WriteMem(4 bytes @ 0xE0001038) -- CPU_WriteMem(4 bytes @ 0xE0001048) -- CPU_WriteMem(4 bytes @ 0xE0001058) -- CPU_WriteMem(4 bytes @ 0xE0002000) -- CPU_ReadMem(4 bytes @ 0xE000EDFC) -- CPU_ReadMem(4 bytes @ 0xE0001000) (0072ms, 0326ms total)
T3C28 000:369 JLINK_Halt()  returns 0x00 (0000ms, 0326ms total)
T3C28 000:369 JLINK_ReadMemU32(0xE000EDF0, 0x0001 Items, ...) -- CPU_ReadMem(4 bytes @ 0xE000EDF0) - Data: 03 00 03 00  returns 0x01 (0001ms, 0327ms total)
T3C28 000:370 JLINK_WriteU32(0xE000EDF0, 0xA05F0003) -- CPU_WriteMem(4 bytes @ 0xE000EDF0)  returns 0x00 (0000ms, 0327ms total)
T3C28 000:371 JLINK_WriteU32(0xE000EDFC, 0x01000000) -- CPU_WriteMem(4 bytes @ 0xE000EDFC)  returns 0x00 (0000ms, 0328ms total)
T3C28 000:385 JLINK_GetHWStatus(...)  returns 0x00 (0001ms, 0329ms total)
T3C28 000:395 JLINK_GetNumBPUnits(Type = 0xFFFFFF00)  returns 0x06 (0000ms, 0329ms total)
T3C28 000:395 JLINK_GetNumBPUnits(Type = 0xF0)  returns 0x2000 (0001ms, 0330ms total)
T3C28 000:396 JLINK_GetNumWPUnits()  returns 0x04 (0000ms, 0330ms total)
T3C28 000:402 JLINK_GetSpeed()  returns 0x1388 (0000ms, 0330ms total)
T3C28 000:408 JLINK_ReadMemU32(0xE000E004, 0x0001 Items, ...) -- CPU_ReadMem(4 bytes @ 0xE000E004) - Data: 00 00 00 00  returns 0x01 (0001ms, 0331ms total)
T3C28 000:409 JLINK_ReadMemU32(0xE000E004, 0x0001 Items, ...) -- CPU_ReadMem(4 bytes @ 0xE000E004) - Data: 00 00 00 00  returns 0x01 (0000ms, 0331ms total)
T3C28 000:409 JLINK_WriteMemEx(0xE0001000, 0x001C Bytes, ..., Flags = 0x02000004) - Data: 01 00 00 00 00 00 00 00 00 00 00 00 00 00 00 00 ... -- CPU_WriteMem(28 bytes @ 0xE0001000)  returns 0x1C (0001ms, 0332ms total)
T3C28 000:410 JLINK_Halt()  returns 0x00 (0000ms, 0332ms total)
T3C28 000:410 JLINK_IsHalted()  returns TRUE (0000ms, 0332ms total)
T3C28 000:414 JLINK_WriteMem(0x20000000, 0x04B8 Bytes, ...) - Data: 00 BE 0A E0 0D 78 2D 06 68 40 08 24 40 00 00 D3 ... -- CPU_WriteMem(1208 bytes @ 0x20000000)  returns 0x4B8 (0008ms, 0340ms total)
T3C28 000:422 JLINK_WriteReg(R0, 0x08000000)  returns 0x00 (0000ms, 0340ms total)
T3C28 000:422 JLINK_WriteReg(R1, 0x00B71B00)  returns 0x00 (0000ms, 0340ms total)
T3C28 000:422 JLINK_WriteReg(R2, 0x00000001)  returns 0x00 (0000ms, 0340ms total)
T3C28 000:422 JLINK_WriteReg(R3, 0x00000000)  returns 0x00 (0000ms, 0340ms total)
T3C28 000:422 JLINK_WriteReg(R4, 0x00000000)  returns 0x00 (0000ms, 0340ms total)
T3C28 000:422 JLINK_WriteReg(R5, 0x00000000)  returns 0x00 (0000ms, 0340ms total)
T3C28 000:422 JLINK_WriteReg(R6, 0x00000000)  returns 0x00 (0000ms, 0340ms total)
T3C28 000:422 JLINK_WriteReg(R7, 0x00000000)  returns 0x00 (0000ms, 0340ms total)
T3C28 000:422 JLINK_WriteReg(R8, 0x00000000)  returns 0x00 (0000ms, 0340ms total)
T3C28 000:422 JLINK_WriteReg(R9, 0x200004B4)  returns 0x00 (0000ms, 0340ms total)
T3C28 000:422 JLINK_WriteReg(R10, 0x00000000)  returns 0x00 (0000ms, 0340ms total)
T3C28 000:422 JLINK_WriteReg(R11, 0x00000000)  returns 0x00 (0000ms, 0340ms total)
T3C28 000:422 JLINK_WriteReg(R12, 0x00000000)  returns 0x00 (0000ms, 0340ms total)
T3C28 000:422 JLINK_WriteReg(R13 (SP), 0x20008000)  returns 0x00 (0000ms, 0340ms total)
T3C28 000:422 JLINK_WriteReg(R14, 0x20000001)  returns 0x00 (0000ms, 0340ms total)
T3C28 000:422 JLINK_WriteReg(R15 (PC), 0x20000058)  returns 0x00 (0000ms, 0340ms total)
T3C28 000:422 JLINK_WriteReg(XPSR, 0x01000000)  returns 0x00 (0000ms, 0340ms total)
T3C28 000:422 JLINK_WriteReg(MSP, 0x20008000)  returns 0x00 (0000ms, 0340ms total)
T3C28 000:422 JLINK_WriteReg(PSP, 0x20008000)  returns 0x00 (0000ms, 0340ms total)
T3C28 000:422 JLINK_WriteReg(CFBP, 0x00000000)  returns 0x00 (0000ms, 0340ms total)
T3C28 000:422 JLINK_SetBPEx(Addr = 0x20000000, Type = 0xFFFFFFF2) -- CPU_ReadMem(4 bytes @ 0x20000000) -- CPU_WriteMem(4 bytes @ 0x20000000) -- CPU_ReadMem(4 bytes @ 0x20000000) -- CPU_WriteMem(4 bytes @ 0x20000000) -- CPU_ReadMem(2 bytes @ 0x20000000)  returns 0x00000001 (0002ms, 0342ms total)
T3C28 000:424 JLINK_Go() -- CPU_WriteMem(2 bytes @ 0x20000000) -- CPU_ReadMem(4 bytes @ 0xE0001000) -- CPU_WriteMem(4 bytes @ 0xE0002008) -- CPU_WriteMem(4 bytes @ 0xE000200C) -- CPU_WriteMem(4 bytes @ 0xE0002010) -- CPU_WriteMem(4 bytes @ 0xE0002014) -- CPU_WriteMem(4 bytes @ 0xE0002018) -- CPU_WriteMem(4 bytes @ 0xE000201C) -- CPU_WriteMem(4 bytes @ 0xE0001004) (0004ms, 0346ms total)
T3C28 000:428 JLINK_IsHalted() -- CPU_ReadMem(2 bytes @ 0x20000000)  returns TRUE (0002ms, 0348ms total)
T3C28 000:430 JLINK_ReadReg(R15 (PC))  returns 0x20000000 (0000ms, 0346ms total)
T3C28 000:430 JLINK_ClrBPEx(BPHandle = 0x00000001)  returns 0x00 (0000ms, 0346ms total)
T3C28 000:430 JLINK_ReadReg(R0)  returns 0x00000000 (0000ms, 0346ms total)
T3C28 000:430 JLINK_WriteReg(R0, 0x08000000)  returns 0x00 (0000ms, 0346ms total)
T3C28 000:430 JLINK_WriteReg(R1, 0x00001000)  returns 0x00 (0000ms, 0346ms total)
T3C28 000:430 JLINK_WriteReg(R2, 0x000000FF)  returns 0x00 (0000ms, 0346ms total)
T3C28 000:430 JLINK_WriteReg(R3, 0x00000000)  returns 0x00 (0001ms, 0347ms total)
T3C28 000:431 JLINK_WriteReg(R4, 0x00000000)  returns 0x00 (0000ms, 0347ms total)
T3C28 000:431 JLINK_WriteReg(R5, 0x00000000)  returns 0x00 (0000ms, 0347ms total)
T3C28 000:431 JLINK_WriteReg(R6, 0x00000000)  returns 0x00 (0000ms, 0347ms total)
T3C28 000:431 JLINK_WriteReg(R7, 0x00000000)  returns 0x00 (0000ms, 0347ms total)
T3C28 000:431 JLINK_WriteReg(R8, 0x00000000)  returns 0x00 (0000ms, 0347ms total)
T3C28 000:431 JLINK_WriteReg(R9, 0x200004B4)  returns 0x00 (0000ms, 0347ms total)
T3C28 000:431 JLINK_WriteReg(R10, 0x00000000)  returns 0x00 (0000ms, 0347ms total)
T3C28 000:431 JLINK_WriteReg(R11, 0x00000000)  returns 0x00 (0000ms, 0347ms total)
T3C28 000:431 JLINK_WriteReg(R12, 0x00000000)  returns 0x00 (0000ms, 0347ms total)
T3C28 000:431 JLINK_WriteReg(R13 (SP), 0x20008000)  returns 0x00 (0000ms, 0347ms total)
T3C28 000:431 JLINK_WriteReg(R14, 0x20000001)  returns 0x00 (0000ms, 0347ms total)
T3C28 000:431 JLINK_WriteReg(R15 (PC), 0x200000E6)  returns 0x00 (0000ms, 0347ms total)
T3C28 000:431 JLINK_WriteReg(XPSR, 0x01000000)  returns 0x00 (0000ms, 0347ms total)
T3C28 000:431 JLINK_WriteReg(MSP, 0x20008000)  returns 0x00 (0000ms, 0347ms total)
T3C28 000:431 JLINK_WriteReg(PSP, 0x20008000)  returns 0x00 (0000ms, 0347ms total)
T3C28 000:431 JLINK_WriteReg(CFBP, 0x00000000)  returns 0x00 (0000ms, 0347ms total)
T3C28 000:431 JLINK_SetBPEx(Addr = 0x20000000, Type = 0xFFFFFFF2)  returns 0x00000002 (0000ms, 0347ms total)
T3C28 000:431 JLINK_Go() -- CPU_ReadMem(4 bytes @ 0xE0001000) (0002ms, 0349ms total)
T3C28 000:433 JLINK_IsHalted() -- CPU_ReadMem(2 bytes @ 0x20000000)  returns TRUE (0002ms, 0351ms total)
T3C28 000:435 JLINK_ReadReg(R15 (PC))  returns 0x20000000 (0000ms, 0349ms total)
T3C28 000:435 JLINK_ClrBPEx(BPHandle = 0x00000002)  returns 0x00 (0000ms, 0349ms total)
T3C28 000:435 JLINK_ReadReg(R0)  returns 0x00000001 (0000ms, 0349ms total)
T3C28 000:435 JLINK_WriteReg(R0, 0x08000000)  returns 0x00 (0000ms, 0349ms total)
T3C28 000:435 JLINK_WriteReg(R1, 0x00001000)  returns 0x00 (0000ms, 0349ms total)
T3C28 000:435 JLINK_WriteReg(R2, 0x000000FF)  returns 0x00 (0000ms, 0349ms total)
T3C28 000:435 JLINK_WriteReg(R3, 0x00000000)  returns 0x00 (0000ms, 0349ms total)
T3C28 000:435 JLINK_WriteReg(R4, 0x00000000)  returns 0x00 (0000ms, 0349ms total)
T3C28 000:435 JLINK_WriteReg(R5, 0x00000000)  returns 0x00 (0000ms, 0349ms total)
T3C28 000:435 JLINK_WriteReg(R6, 0x00000000)  returns 0x00 (0000ms, 0349ms total)
T3C28 000:435 JLINK_WriteReg(R7, 0x00000000)  returns 0x00 (0000ms, 0349ms total)
T3C28 000:435 JLINK_WriteReg(R8, 0x00000000)  returns 0x00 (0000ms, 0349ms total)
T3C28 000:435 JLINK_WriteReg(R9, 0x200004B4)  returns 0x00 (0001ms, 0350ms total)
T3C28 000:436 JLINK_WriteReg(R10, 0x00000000)  returns 0x00 (0000ms, 0350ms total)
T3C28 000:436 JLINK_WriteReg(R11, 0x00000000)  returns 0x00 (0000ms, 0350ms total)
T3C28 000:436 JLINK_WriteReg(R12, 0x00000000)  returns 0x00 (0000ms, 0350ms total)
T3C28 000:436 JLINK_WriteReg(R13 (SP), 0x20008000)  returns 0x00 (0000ms, 0350ms total)
T3C28 000:436 JLINK_WriteReg(R14, 0x20000001)  returns 0x00 (0000ms, 0350ms total)
T3C28 000:436 JLINK_WriteReg(R15 (PC), 0x200000B6)  returns 0x00 (0000ms, 0350ms total)
T3C28 000:436 JLINK_WriteReg(XPSR, 0x01000000)  returns 0x00 (0000ms, 0350ms total)
T3C28 000:436 JLINK_WriteReg(MSP, 0x20008000)  returns 0x00 (0000ms, 0350ms total)
T3C28 000:436 JLINK_WriteReg(PSP, 0x20008000)  returns 0x00 (0000ms, 0350ms total)
T3C28 000:436 JLINK_WriteReg(CFBP, 0x00000000)  returns 0x00 (0000ms, 0350ms total)
T3C28 000:436 JLINK_SetBPEx(Addr = 0x20000000, Type = 0xFFFFFFF2)  returns 0x00000003 (0000ms, 0350ms total)
T3C28 000:436 JLINK_Go() -- CPU_ReadMem(4 bytes @ 0xE0001000) (0002ms, 0352ms total)
T3C28 000:438 JLINK_IsHalted()  returns FALSE (0000ms, 0352ms total)
T3C28 000:491 JLINK_IsHalted()  returns FALSE (0000ms, 0352ms total)
T3C28 000:493 JLINK_IsHalted()  returns FALSE (0000ms, 0352ms total)
T3C28 000:496 JLINK_IsHalted()  returns FALSE (0000ms, 0352ms total)
T3C28 000:497 JLINK_IsHalted()  returns FALSE (0000ms, 0352ms total)
T3C28 000:499 JLINK_IsHalted()  returns FALSE (0000ms, 0352ms total)
T3C28 000:503 JLINK_IsHalted()  returns FALSE (0000ms, 0352ms total)
T3C28 000:505 JLINK_IsHalted()  returns FALSE (0000ms, 0352ms total)
T3C28 000:507 JLINK_IsHalted()  returns FALSE (0000ms, 0352ms total)
T3C28 000:509 JLINK_IsHalted()  returns FALSE (0000ms, 0352ms total)
T3C28 000:511 JLINK_IsHalted()  returns FALSE (0000ms, 0352ms total)
T3C28 000:513 JLINK_IsHalted()  returns FALSE (0000ms, 0352ms total)
T3C28 000:515 JLINK_IsHalted()  returns FALSE (0000ms, 0352ms total)
T3C28 000:517 JLINK_IsHalted()  returns FALSE (0001ms, 0353ms total)
T3C28 000:519 JLINK_IsHalted()  returns FALSE (0000ms, 0352ms total)
T3C28 000:521 JLINK_IsHalted()  returns FALSE (0000ms, 0352ms total)
T3C28 000:523 JLINK_IsHalted()  returns FALSE (0000ms, 0352ms total)
T3C28 000:525 JLINK_IsHalted()  returns FALSE (0000ms, 0352ms total)
T3C28 000:527 JLINK_IsHalted()  returns FALSE (0000ms, 0352ms total)
T3C28 000:529 JLINK_IsHalted()  returns FALSE (0000ms, 0352ms total)
T3C28 000:531 JLINK_IsHalted()  returns FALSE (0000ms, 0352ms total)
T3C28 000:533 JLINK_IsHalted()  returns FALSE (0000ms, 0352ms total)
T3C28 000:535 JLINK_IsHalted()  returns FALSE (0000ms, 0352ms total)
T3C28 000:537 JLINK_IsHalted()  returns FALSE (0000ms, 0352ms total)
T3C28 000:539 JLINK_IsHalted()  returns FALSE (0000ms, 0352ms total)
T3C28 000:541 JLINK_IsHalted()  returns FALSE (0000ms, 0352ms total)
T3C28 000:543 JLINK_IsHalted() -- CPU_ReadMem(2 bytes @ 0x20000000)  returns TRUE (0002ms, 0354ms total)
T3C28 000:545 JLINK_ReadReg(R15 (PC))  returns 0x20000000 (0000ms, 0352ms total)
T3C28 000:545 JLINK_ClrBPEx(BPHandle = 0x00000003)  returns 0x00 (0000ms, 0352ms total)
T3C28 000:545 JLINK_ReadReg(R0)  returns 0x00000000 (0000ms, 0352ms total)
T3C28 000:546 JLINK_WriteReg(R0, 0x00000001)  returns 0x00 (0000ms, 0352ms total)
T3C28 000:546 JLINK_WriteReg(R1, 0x00001000)  returns 0x00 (0000ms, 0352ms total)
T3C28 000:546 JLINK_WriteReg(R2, 0x000000FF)  returns 0x00 (0000ms, 0352ms total)
T3C28 000:546 JLINK_WriteReg(R3, 0x00000000)  returns 0x00 (0000ms, 0352ms total)
T3C28 000:546 JLINK_WriteReg(R4, 0x00000000)  returns 0x00 (0000ms, 0352ms total)
T3C28 000:546 JLINK_WriteReg(R5, 0x00000000)  returns 0x00 (0000ms, 0352ms total)
T3C28 000:546 JLINK_WriteReg(R6, 0x00000000)  returns 0x00 (0000ms, 0352ms total)
T3C28 000:546 JLINK_WriteReg(R7, 0x00000000)  returns 0x00 (0000ms, 0352ms total)
T3C28 000:546 JLINK_WriteReg(R8, 0x00000000)  returns 0x00 (0000ms, 0352ms total)
T3C28 000:546 JLINK_WriteReg(R9, 0x200004B4)  returns 0x00 (0000ms, 0352ms total)
T3C28 000:546 JLINK_WriteReg(R10, 0x00000000)  returns 0x00 (0000ms, 0352ms total)
T3C28 000:546 JLINK_WriteReg(R11, 0x00000000)  returns 0x00 (0000ms, 0352ms total)
T3C28 000:546 JLINK_WriteReg(R12, 0x00000000)  returns 0x00 (0000ms, 0352ms total)
T3C28 000:546 JLINK_WriteReg(R13 (SP), 0x20008000)  returns 0x00 (0000ms, 0352ms total)
T3C28 000:546 JLINK_WriteReg(R14, 0x20000001)  returns 0x00 (0000ms, 0352ms total)
T3C28 000:546 JLINK_WriteReg(R15 (PC), 0x2000007E)  returns 0x00 (0000ms, 0352ms total)
T3C28 000:546 JLINK_WriteReg(XPSR, 0x01000000)  returns 0x00 (0000ms, 0352ms total)
T3C28 000:546 JLINK_WriteReg(MSP, 0x20008000)  returns 0x00 (0000ms, 0352ms total)
T3C28 000:546 JLINK_WriteReg(PSP, 0x20008000)  returns 0x00 (0000ms, 0352ms total)
T3C28 000:546 JLINK_WriteReg(CFBP, 0x00000000)  returns 0x00 (0000ms, 0352ms total)
T3C28 000:546 JLINK_SetBPEx(Addr = 0x20000000, Type = 0xFFFFFFF2)  returns 0x00000004 (0000ms, 0352ms total)
T3C28 000:546 JLINK_Go() -- CPU_ReadMem(4 bytes @ 0xE0001000) (0002ms, 0354ms total)
T3C28 000:548 JLINK_IsHalted() -- CPU_ReadMem(2 bytes @ 0x20000000)  returns TRUE (0002ms, 0356ms total)
T3C28 000:550 JLINK_ReadReg(R15 (PC))  returns 0x20000000 (0000ms, 0354ms total)
T3C28 000:550 JLINK_ClrBPEx(BPHandle = 0x00000004)  returns 0x00 (0000ms, 0354ms total)
T3C28 000:550 JLINK_ReadReg(R0)  returns 0x00000000 (0000ms, 0354ms total)
T3C28 000:615 JLINK_WriteMem(0x20000000, 0x04B8 Bytes, ...) - Data: 00 BE 0A E0 0D 78 2D 06 68 40 08 24 40 00 00 D3 ... -- CPU_WriteMem(1208 bytes @ 0x20000000)  returns 0x4B8 (0007ms, 0361ms total)
T3C28 000:622 JLINK_WriteReg(R0, 0x08000000)  returns 0x00 (0000ms, 0361ms total)
T3C28 000:622 JLINK_WriteReg(R1, 0x00B71B00)  returns 0x00 (0000ms, 0361ms total)
T3C28 000:622 JLINK_WriteReg(R2, 0x00000002)  returns 0x00 (0000ms, 0361ms total)
T3C28 000:622 JLINK_WriteReg(R3, 0x00000000)  returns 0x00 (0000ms, 0361ms total)
T3C28 000:622 JLINK_WriteReg(R4, 0x00000000)  returns 0x00 (0000ms, 0361ms total)
T3C28 000:622 JLINK_WriteReg(R5, 0x00000000)  returns 0x00 (0000ms, 0361ms total)
T3C28 000:622 JLINK_WriteReg(R6, 0x00000000)  returns 0x00 (0000ms, 0361ms total)
T3C28 000:622 JLINK_WriteReg(R7, 0x00000000)  returns 0x00 (0000ms, 0361ms total)
T3C28 000:622 JLINK_WriteReg(R8, 0x00000000)  returns 0x00 (0000ms, 0361ms total)
T3C28 000:622 JLINK_WriteReg(R9, 0x200004B4)  returns 0x00 (0000ms, 0361ms total)
T3C28 000:622 JLINK_WriteReg(R10, 0x00000000)  returns 0x00 (0000ms, 0361ms total)
T3C28 000:622 JLINK_WriteReg(R11, 0x00000000)  returns 0x00 (0000ms, 0361ms total)
T3C28 000:622 JLINK_WriteReg(R12, 0x00000000)  returns 0x00 (0000ms, 0361ms total)
T3C28 000:622 JLINK_WriteReg(R13 (SP), 0x20008000)  returns 0x00 (0000ms, 0361ms total)
T3C28 000:622 JLINK_WriteReg(R14, 0x20000001)  returns 0x00 (0000ms, 0361ms total)
T3C28 000:622 JLINK_WriteReg(R15 (PC), 0x20000058)  returns 0x00 (0000ms, 0361ms total)
T3C28 000:622 JLINK_WriteReg(XPSR, 0x01000000)  returns 0x00 (0000ms, 0361ms total)
T3C28 000:622 JLINK_WriteReg(MSP, 0x20008000)  returns 0x00 (0000ms, 0361ms total)
T3C28 000:622 JLINK_WriteReg(PSP, 0x20008000)  returns 0x00 (0000ms, 0361ms total)
T3C28 000:622 JLINK_WriteReg(CFBP, 0x00000000)  returns 0x00 (0000ms, 0361ms total)
T3C28 000:622 JLINK_SetBPEx(Addr = 0x20000000, Type = 0xFFFFFFF2) -- CPU_ReadMem(4 bytes @ 0x20000000) -- CPU_WriteMem(4 bytes @ 0x20000000) -- CPU_ReadMem(4 bytes @ 0x20000000) -- CPU_WriteMem(4 bytes @ 0x20000000) -- CPU_ReadMem(2 bytes @ 0x20000000)  returns 0x00000005 (0003ms, 0364ms total)
T3C28 000:625 JLINK_Go() -- CPU_WriteMem(2 bytes @ 0x20000000) -- CPU_ReadMem(4 bytes @ 0xE0001000) (0002ms, 0366ms total)
T3C28 000:628 JLINK_IsHalted() -- CPU_ReadMem(2 bytes @ 0x20000000)  returns TRUE (0003ms, 0369ms total)
T3C28 000:631 JLINK_ReadReg(R15 (PC))  returns 0x20000000 (0000ms, 0366ms total)
T3C28 000:631 JLINK_ClrBPEx(BPHandle = 0x00000005)  returns 0x00 (0000ms, 0366ms total)
T3C28 000:631 JLINK_ReadReg(R0)  returns 0x00000000 (0000ms, 0366ms total)
T3C28 000:631 JLINK_WriteMem(0x200004B8, 0x0348 Bytes, ...) - Data: 68 06 00 20 89 01 00 08 91 01 00 08 93 01 00 08 ... -- CPU_WriteMem(840 bytes @ 0x200004B8)  returns 0x348 (0006ms, 0372ms total)
T3C28 000:637 JLINK_WriteMem(0x20000800, 0x0400 Bytes, ...) - Data: 00 0B 00 21 01 9E C4 F2 0C 01 00 27 00 22 8E 42 ... -- CPU_WriteMem(1024 bytes @ 0x20000800)  returns 0x400 (0006ms, 0378ms total)
T3C28 000:643 JLINK_WriteMem(0x20000C00, 0x0400 Bytes, ...) - Data: FF FF FF FF FF FF FF FF FF FF FF FF FF FF FF FF ... -- CPU_WriteMem(1024 bytes @ 0x20000C00)  returns 0x400 (0007ms, 0385ms total)
T3C28 000:650 JLINK_WriteMem(0x20001000, 0x0400 Bytes, ...) - Data: FF FF FF FF FF FF FF FF FF FF FF FF FF FF FF FF ... -- CPU_WriteMem(1024 bytes @ 0x20001000)  returns 0x400 (0005ms, 0390ms total)
T3C28 000:656 JLINK_WriteMem(0x20001400, 0x00B8 Bytes, ...) - Data: FF FF FF FF FF FF FF FF FF FF FF FF FF FF FF FF ... -- CPU_WriteMem(184 bytes @ 0x20001400)  returns 0xB8 (0002ms, 0392ms total)
T3C28 000:658 JLINK_WriteReg(R0, 0x08000000)  returns 0x00 (0000ms, 0392ms total)
T3C28 000:658 JLINK_WriteReg(R1, 0x00000568)  returns 0x00 (0000ms, 0392ms total)
T3C28 000:658 JLINK_WriteReg(R2, 0x200004B8)  returns 0x00 (0000ms, 0392ms total)
T3C28 000:658 JLINK_WriteReg(R3, 0x00000000)  returns 0x00 (0000ms, 0392ms total)
T3C28 000:658 JLINK_WriteReg(R4, 0x00000000)  returns 0x00 (0000ms, 0392ms total)
T3C28 000:658 JLINK_WriteReg(R5, 0x00000000)  returns 0x00 (0000ms, 0392ms total)
T3C28 000:658 JLINK_WriteReg(R6, 0x00000000)  returns 0x00 (0000ms, 0392ms total)
T3C28 000:658 JLINK_WriteReg(R7, 0x00000000)  returns 0x00 (0000ms, 0392ms total)
T3C28 000:658 JLINK_WriteReg(R8, 0x00000000)  returns 0x00 (0000ms, 0392ms total)
T3C28 000:658 JLINK_WriteReg(R9, 0x200004B4)  returns 0x00 (0000ms, 0392ms total)
T3C28 000:658 JLINK_WriteReg(R10, 0x00000000)  returns 0x00 (0000ms, 0392ms total)
T3C28 000:658 JLINK_WriteReg(R11, 0x00000000)  returns 0x00 (0000ms, 0392ms total)
T3C28 000:658 JLINK_WriteReg(R12, 0x00000000)  returns 0x00 (0000ms, 0392ms total)
T3C28 000:658 JLINK_WriteReg(R13 (SP), 0x20008000)  returns 0x00 (0000ms, 0392ms total)
T3C28 000:658 JLINK_WriteReg(R14, 0x20000001)  returns 0x00 (0000ms, 0392ms total)
T3C28 000:658 JLINK_WriteReg(R15 (PC), 0x200000C2)  returns 0x00 (0000ms, 0392ms total)
T3C28 000:658 JLINK_WriteReg(XPSR, 0x01000000)  returns 0x00 (0000ms, 0392ms total)
T3C28 000:658 JLINK_WriteReg(MSP, 0x20008000)  returns 0x00 (0000ms, 0392ms total)
T3C28 000:658 JLINK_WriteReg(PSP, 0x20008000)  returns 0x00 (0000ms, 0392ms total)
T3C28 000:658 JLINK_WriteReg(CFBP, 0x00000000)  returns 0x00 (0000ms, 0392ms total)
T3C28 000:658 JLINK_SetBPEx(Addr = 0x20000000, Type = 0xFFFFFFF2)  returns 0x00000006 (0000ms, 0392ms total)
T3C28 000:658 JLINK_Go() -- CPU_ReadMem(4 bytes @ 0xE0001000) (0002ms, 0394ms total)
T3C28 000:660 JLINK_IsHalted()  returns FALSE (0001ms, 0395ms total)
T3C28 000:666 JLINK_IsHalted()  returns FALSE (0001ms, 0395ms total)
T3C28 000:668 JLINK_IsHalted()  returns FALSE (0000ms, 0394ms total)
T3C28 000:670 JLINK_IsHalted()  returns FALSE (0000ms, 0394ms total)
T3C28 000:672 JLINK_IsHalted()  returns FALSE (0000ms, 0394ms total)
T3C28 000:674 JLINK_IsHalted()  returns FALSE (0000ms, 0394ms total)
T3C28 000:676 JLINK_IsHalted()  returns FALSE (0000ms, 0394ms total)
T3C28 000:678 JLINK_IsHalted()  returns FALSE (0000ms, 0394ms total)
T3C28 000:680 JLINK_IsHalted()  returns FALSE (0000ms, 0394ms total)
T3C28 000:682 JLINK_IsHalted()  returns FALSE (0000ms, 0394ms total)
T3C28 000:684 JLINK_IsHalted()  returns FALSE (0000ms, 0394ms total)
T3C28 000:687 JLINK_IsHalted()  returns FALSE (0000ms, 0394ms total)
T3C28 000:689 JLINK_IsHalted() -- CPU_ReadMem(2 bytes @ 0x20000000)  returns TRUE (0002ms, 0396ms total)
T3C28 000:692 JLINK_ReadReg(R15 (PC))  returns 0x20000000 (0000ms, 0394ms total)
T3C28 000:692 JLINK_ClrBPEx(BPHandle = 0x00000006)  returns 0x00 (0000ms, 0394ms total)
T3C28 000:692 JLINK_ReadReg(R0)  returns 0x00000000 (0000ms, 0394ms total)
T3C28 000:692 JLINK_WriteReg(R0, 0x00000002)  returns 0x00 (0000ms, 0394ms total)
T3C28 000:692 JLINK_WriteReg(R1, 0x00000568)  returns 0x00 (0000ms, 0394ms total)
T3C28 000:692 JLINK_WriteReg(R2, 0x200004B8)  returns 0x00 (0000ms, 0394ms total)
T3C28 000:692 JLINK_WriteReg(R3, 0x00000000)  returns 0x00 (0000ms, 0394ms total)
T3C28 000:692 JLINK_WriteReg(R4, 0x00000000)  returns 0x00 (0000ms, 0394ms total)
T3C28 000:692 JLINK_WriteReg(R5, 0x00000000)  returns 0x00 (0000ms, 0394ms total)
T3C28 000:692 JLINK_WriteReg(R6, 0x00000000)  returns 0x00 (0000ms, 0394ms total)
T3C28 000:692 JLINK_WriteReg(R7, 0x00000000)  returns 0x00 (0000ms, 0394ms total)
T3C28 000:692 JLINK_WriteReg(R8, 0x00000000)  returns 0x00 (0000ms, 0394ms total)
T3C28 000:692 JLINK_WriteReg(R9, 0x200004B4)  returns 0x00 (0000ms, 0394ms total)
T3C28 000:692 JLINK_WriteReg(R10, 0x00000000)  returns 0x00 (0000ms, 0394ms total)
T3C28 000:692 JLINK_WriteReg(R11, 0x00000000)  returns 0x00 (0000ms, 0394ms total)
T3C28 000:692 JLINK_WriteReg(R12, 0x00000000)  returns 0x00 (0000ms, 0394ms total)
T3C28 000:692 JLINK_WriteReg(R13 (SP), 0x20008000)  returns 0x00 (0000ms, 0394ms total)
T3C28 000:692 JLINK_WriteReg(R14, 0x20000001)  returns 0x00 (0000ms, 0394ms total)
T3C28 000:692 JLINK_WriteReg(R15 (PC), 0x2000007E)  returns 0x00 (0000ms, 0394ms total)
T3C28 000:692 JLINK_WriteReg(XPSR, 0x01000000)  returns 0x00 (0000ms, 0394ms total)
T3C28 000:692 JLINK_WriteReg(MSP, 0x20008000)  returns 0x00 (0000ms, 0394ms total)
T3C28 000:692 JLINK_WriteReg(PSP, 0x20008000)  returns 0x00 (0000ms, 0394ms total)
T3C28 000:692 JLINK_WriteReg(CFBP, 0x00000000)  returns 0x00 (0000ms, 0394ms total)
T3C28 000:692 JLINK_SetBPEx(Addr = 0x20000000, Type = 0xFFFFFFF2)  returns 0x00000007 (0000ms, 0394ms total)
T3C28 000:692 JLINK_Go() -- CPU_ReadMem(4 bytes @ 0xE0001000) (0002ms, 0396ms total)
T3C28 000:694 JLINK_IsHalted() -- CPU_ReadMem(2 bytes @ 0x20000000)  returns TRUE (0003ms, 0399ms total)
T3C28 000:697 JLINK_ReadReg(R15 (PC))  returns 0x20000000 (0000ms, 0396ms total)
T3C28 000:697 JLINK_ClrBPEx(BPHandle = 0x00000007)  returns 0x00 (0000ms, 0396ms total)
T3C28 000:697 JLINK_ReadReg(R0)  returns 0x00000000 (0000ms, 0396ms total)
T3C28 000:761 JLINK_WriteMem(0x20000000, 0x04B8 Bytes, ...) - Data: 00 BE 0A E0 0D 78 2D 06 68 40 08 24 40 00 00 D3 ... -- CPU_WriteMem(1208 bytes @ 0x20000000)  returns 0x4B8 (0007ms, 0403ms total)
T3C28 000:768 JLINK_WriteReg(R0, 0x08000000)  returns 0x00 (0000ms, 0403ms total)
T3C28 000:768 JLINK_WriteReg(R1, 0x00B71B00)  returns 0x00 (0000ms, 0403ms total)
T3C28 000:768 JLINK_WriteReg(R2, 0x00000003)  returns 0x00 (0000ms, 0403ms total)
T3C28 000:768 JLINK_WriteReg(R3, 0x00000000)  returns 0x00 (0000ms, 0403ms total)
T3C28 000:768 JLINK_WriteReg(R4, 0x00000000)  returns 0x00 (0000ms, 0403ms total)
T3C28 000:768 JLINK_WriteReg(R5, 0x00000000)  returns 0x00 (0000ms, 0403ms total)
T3C28 000:768 JLINK_WriteReg(R6, 0x00000000)  returns 0x00 (0000ms, 0403ms total)
T3C28 000:768 JLINK_WriteReg(R7, 0x00000000)  returns 0x00 (0000ms, 0403ms total)
T3C28 000:768 JLINK_WriteReg(R8, 0x00000000)  returns 0x00 (0000ms, 0403ms total)
T3C28 000:768 JLINK_WriteReg(R9, 0x200004B4)  returns 0x00 (0000ms, 0403ms total)
T3C28 000:768 JLINK_WriteReg(R10, 0x00000000)  returns 0x00 (0000ms, 0403ms total)
T3C28 000:768 JLINK_WriteReg(R11, 0x00000000)  returns 0x00 (0000ms, 0403ms total)
T3C28 000:768 JLINK_WriteReg(R12, 0x00000000)  returns 0x00 (0000ms, 0403ms total)
T3C28 000:768 JLINK_WriteReg(R13 (SP), 0x20008000)  returns 0x00 (0000ms, 0403ms total)
T3C28 000:768 JLINK_WriteReg(R14, 0x20000001)  returns 0x00 (0000ms, 0403ms total)
T3C28 000:768 JLINK_WriteReg(R15 (PC), 0x20000058)  returns 0x00 (0000ms, 0403ms total)
T3C28 000:768 JLINK_WriteReg(XPSR, 0x01000000)  returns 0x00 (0000ms, 0403ms total)
T3C28 000:768 JLINK_WriteReg(MSP, 0x20008000)  returns 0x00 (0000ms, 0403ms total)
T3C28 000:768 JLINK_WriteReg(PSP, 0x20008000)  returns 0x00 (0000ms, 0403ms total)
T3C28 000:768 JLINK_WriteReg(CFBP, 0x00000000)  returns 0x00 (0000ms, 0403ms total)
T3C28 000:768 JLINK_SetBPEx(Addr = 0x20000000, Type = 0xFFFFFFF2) -- CPU_ReadMem(4 bytes @ 0x20000000) -- CPU_WriteMem(4 bytes @ 0x20000000) -- CPU_ReadMem(4 bytes @ 0x20000000) -- CPU_WriteMem(4 bytes @ 0x20000000) -- CPU_ReadMem(2 bytes @ 0x20000000)  returns 0x00000008 (0003ms, 0406ms total)
T3C28 000:771 JLINK_Go() -- CPU_WriteMem(2 bytes @ 0x20000000) -- CPU_ReadMem(4 bytes @ 0xE0001000) (0002ms, 0408ms total)
T3C28 000:773 JLINK_IsHalted() -- CPU_ReadMem(2 bytes @ 0x20000000)  returns TRUE (0003ms, 0411ms total)
T3C28 000:776 JLINK_ReadReg(R15 (PC))  returns 0x20000000 (0000ms, 0408ms total)
T3C28 000:776 JLINK_ClrBPEx(BPHandle = 0x00000008)  returns 0x00 (0000ms, 0408ms total)
T3C28 000:776 JLINK_ReadReg(R0)  returns 0x00000000 (0000ms, 0408ms total)
T3C28 000:776 JLINK_WriteMem(0x200004B8, 0x0348 Bytes, ...) - Data: 68 06 00 20 89 01 00 08 91 01 00 08 93 01 00 08 ... -- CPU_WriteMem(840 bytes @ 0x200004B8)  returns 0x348 (0004ms, 0412ms total)
T3C28 000:780 JLINK_WriteMem(0x20000800, 0x0400 Bytes, ...) - Data: 00 0B 00 21 01 9E C4 F2 0C 01 00 27 00 22 8E 42 ... -- CPU_WriteMem(1024 bytes @ 0x20000800)  returns 0x400 (0007ms, 0419ms total)
T3C28 000:787 JLINK_WriteMem(0x20000C00, 0x0400 Bytes, ...) - Data: 00 00 00 00 00 00 00 00 00 00 00 00 00 00 00 00 ... -- CPU_WriteMem(1024 bytes @ 0x20000C00)  returns 0x400 (0006ms, 0425ms total)
T3C28 000:793 JLINK_WriteMem(0x20001000, 0x0400 Bytes, ...) - Data: 00 00 00 00 00 00 00 00 00 00 00 00 00 00 00 00 ... -- CPU_WriteMem(1024 bytes @ 0x20001000)  returns 0x400 (0007ms, 0432ms total)
T3C28 000:800 JLINK_WriteMem(0x20001400, 0x00B8 Bytes, ...) - Data: 00 00 00 00 00 00 00 00 00 00 00 00 00 00 00 00 ... -- CPU_WriteMem(184 bytes @ 0x20001400)  returns 0xB8 (0001ms, 0433ms total)
T3C28 000:801 JLINK_WriteReg(R0, 0x08000000)  returns 0x00 (0000ms, 0433ms total)
T3C28 000:801 JLINK_WriteReg(R1, 0x00000568)  returns 0x00 (0000ms, 0433ms total)
T3C28 000:801 JLINK_WriteReg(R2, 0x200004B8)  returns 0x00 (0000ms, 0433ms total)
T3C28 000:801 JLINK_WriteReg(R3, 0x00000000)  returns 0x00 (0000ms, 0433ms total)
T3C28 000:801 JLINK_WriteReg(R4, 0x00000000)  returns 0x00 (0000ms, 0433ms total)
T3C28 000:801 JLINK_WriteReg(R5, 0x00000000)  returns 0x00 (0000ms, 0433ms total)
T3C28 000:801 JLINK_WriteReg(R6, 0x00000000)  returns 0x00 (0000ms, 0433ms total)
T3C28 000:801 JLINK_WriteReg(R7, 0x00000000)  returns 0x00 (0000ms, 0433ms total)
T3C28 000:801 JLINK_WriteReg(R8, 0x00000000)  returns 0x00 (0000ms, 0433ms total)
T3C28 000:801 JLINK_WriteReg(R9, 0x200004B4)  returns 0x00 (0000ms, 0433ms total)
T3C28 000:801 JLINK_WriteReg(R10, 0x00000000)  returns 0x00 (0000ms, 0433ms total)
T3C28 000:801 JLINK_WriteReg(R11, 0x00000000)  returns 0x00 (0000ms, 0433ms total)
T3C28 000:801 JLINK_WriteReg(R12, 0x00000000)  returns 0x00 (0000ms, 0433ms total)
T3C28 000:801 JLINK_WriteReg(R13 (SP), 0x20008000)  returns 0x00 (0000ms, 0433ms total)
T3C28 000:801 JLINK_WriteReg(R14, 0x20000001)  returns 0x00 (0000ms, 0433ms total)
T3C28 000:801 JLINK_WriteReg(R15 (PC), 0x200000FE)  returns 0x00 (0000ms, 0433ms total)
T3C28 000:801 JLINK_WriteReg(XPSR, 0x01000000)  returns 0x00 (0000ms, 0433ms total)
T3C28 000:801 JLINK_WriteReg(MSP, 0x20008000)  returns 0x00 (0000ms, 0433ms total)
T3C28 000:801 JLINK_WriteReg(PSP, 0x20008000)  returns 0x00 (0000ms, 0433ms total)
T3C28 000:801 JLINK_WriteReg(CFBP, 0x00000000)  returns 0x00 (0000ms, 0433ms total)
T3C28 000:801 JLINK_SetBPEx(Addr = 0x20000000, Type = 0xFFFFFFF2)  returns 0x00000009 (0000ms, 0433ms total)
T3C28 000:801 JLINK_Go() -- CPU_ReadMem(4 bytes @ 0xE0001000) (0002ms, 0435ms total)
T3C28 000:803 JLINK_IsHalted()  returns FALSE (0001ms, 0436ms total)
T3C28 000:810 JLINK_IsHalted() -- CPU_ReadMem(2 bytes @ 0x20000000)  returns TRUE (0002ms, 0437ms total)
T3C28 000:812 JLINK_ReadReg(R15 (PC))  returns 0x20000000 (0000ms, 0435ms total)
T3C28 000:812 JLINK_ClrBPEx(BPHandle = 0x00000009)  returns 0x00 (0000ms, 0435ms total)
T3C28 000:812 JLINK_ReadReg(R0)  returns 0x08000568 (0000ms, 0435ms total)
T3C28 000:814 JLINK_WriteReg(R0, 0x00000003)  returns 0x00 (0000ms, 0435ms total)
T3C28 000:814 JLINK_WriteReg(R1, 0x00000568)  returns 0x00 (0000ms, 0435ms total)
T3C28 000:814 JLINK_WriteReg(R2, 0x200004B8)  returns 0x00 (0000ms, 0435ms total)
T3C28 000:814 JLINK_WriteReg(R3, 0x00000000)  returns 0x00 (0000ms, 0435ms total)
T3C28 000:814 JLINK_WriteReg(R4, 0x00000000)  returns 0x00 (0000ms, 0435ms total)
T3C28 000:814 JLINK_WriteReg(R5, 0x00000000)  returns 0x00 (0000ms, 0435ms total)
T3C28 000:814 JLINK_WriteReg(R6, 0x00000000)  returns 0x00 (0000ms, 0435ms total)
T3C28 000:814 JLINK_WriteReg(R7, 0x00000000)  returns 0x00 (0000ms, 0435ms total)
T3C28 000:814 JLINK_WriteReg(R8, 0x00000000)  returns 0x00 (0000ms, 0435ms total)
T3C28 000:814 JLINK_WriteReg(R9, 0x200004B4)  returns 0x00 (0000ms, 0435ms total)
T3C28 000:814 JLINK_WriteReg(R10, 0x00000000)  returns 0x00 (0000ms, 0435ms total)
T3C28 000:814 JLINK_WriteReg(R11, 0x00000000)  returns 0x00 (0000ms, 0435ms total)
T3C28 000:814 JLINK_WriteReg(R12, 0x00000000)  returns 0x00 (0000ms, 0435ms total)
T3C28 000:814 JLINK_WriteReg(R13 (SP), 0x20008000)  returns 0x00 (0000ms, 0435ms total)
T3C28 000:814 JLINK_WriteReg(R14, 0x20000001)  returns 0x00 (0000ms, 0435ms total)
T3C28 000:814 JLINK_WriteReg(R15 (PC), 0x2000007E)  returns 0x00 (0000ms, 0435ms total)
T3C28 000:814 JLINK_WriteReg(XPSR, 0x01000000)  returns 0x00 (0000ms, 0435ms total)
T3C28 000:814 JLINK_WriteReg(MSP, 0x20008000)  returns 0x00 (0000ms, 0435ms total)
T3C28 000:814 JLINK_WriteReg(PSP, 0x20008000)  returns 0x00 (0000ms, 0435ms total)
T3C28 000:814 JLINK_WriteReg(CFBP, 0x00000000)  returns 0x00 (0000ms, 0435ms total)
T3C28 000:814 JLINK_SetBPEx(Addr = 0x20000000, Type = 0xFFFFFFF2)  returns 0x0000000A (0000ms, 0435ms total)
T3C28 000:814 JLINK_Go() -- CPU_ReadMem(4 bytes @ 0xE0001000) (0001ms, 0436ms total)
T3C28 000:815 JLINK_IsHalted() -- CPU_ReadMem(2 bytes @ 0x20000000)  returns TRUE (0003ms, 0439ms total)
T3C28 000:818 JLINK_ReadReg(R15 (PC))  returns 0x20000000 (0000ms, 0436ms total)
T3C28 000:818 JLINK_ClrBPEx(BPHandle = 0x0000000A)  returns 0x00 (0000ms, 0436ms total)
T3C28 000:818 JLINK_ReadReg(R0)  returns 0x00000000 (0000ms, 0436ms total)
T3C28 000:878 JLINK_WriteMemEx(0x20000000, 0x0002 Bytes, ..., Flags = 0x02000000) - Data: FE E7 -- CPU_WriteMem(2 bytes @ 0x20000000)  returns 0x02 (0001ms, 0437ms total)
T3C28 000:879 JLINK_SetResetType(JLINKARM_CM3_RESET_TYPE_NORMAL)  returns JLINKARM_CM3_RESET_TYPE_NORMAL (0000ms, 0437ms total)
T3C28 000:879 JLINK_Reset() -- CPU_WriteMem(4 bytes @ 0xE000EDF0) -- CPU_WriteMem(4 bytes @ 0xE000EDFC)Reset: Halt core after reset via DEMCR.VC_CORERESET.Reset: Reset device via AIRCR.SYSRESETREQ. -- CPU_WriteMem(4 bytes @ 0xE000ED0C) -- CPU_ReadMem(4 bytes @ 0xE000EDF0) -- CPU_ReadMem(4 bytes @ 0xE000EDF0) -- CPU_WriteMem(4 bytes @ 0xE000EDF0) -- CPU_WriteMem(4 bytes @ 0xE000EDFC) -- CPU_ReadMem(4 bytes @ 0xE000EDF0) -- CPU_WriteMem(4 bytes @ 0xE000EDFC) -- CPU_WriteMem(4 bytes @ 0xE0001028)
 -- CPU_WriteMem(4 bytes @ 0xE0001038) -- CPU_WriteMem(4 bytes @ 0xE0001048) -- CPU_WriteMem(4 bytes @ 0xE0001058) -- CPU_WriteMem(4 bytes @ 0xE0002000) -- CPU_ReadMem(4 bytes @ 0xE000EDFC) -- CPU_ReadMem(4 bytes @ 0xE0001000) (0074ms, 0511ms total)
T3C28 000:953 JLINK_Go() -- CPU_ReadMem(4 bytes @ 0xE0001000) -- CPU_WriteMem(4 bytes @ 0xE0002008) -- CPU_WriteMem(4 bytes @ 0xE000200C) -- CPU_WriteMem(4 bytes @ 0xE0002010) -- CPU_WriteMem(4 bytes @ 0xE0002014) -- CPU_WriteMem(4 bytes @ 0xE0002018) -- CPU_WriteMem(4 bytes @ 0xE000201C) -- CPU_WriteMem(4 bytes @ 0xE0001004) (0003ms, 0514ms total)
T3C28 000:974 JLINK_Close() -- CPU is running -- CPU_WriteMem(4 bytes @ 0xE0002008) -- CPU is running -- CPU_WriteMem(4 bytes @ 0xE000200C) -- CPU is running -- CPU_WriteMem(4 bytes @ 0xE0002010) -- CPU is running -- CPU_WriteMem(4 bytes @ 0xE0002014) -- CPU is running -- CPU_WriteMem(4 bytes @ 0xE0002018) -- CPU is running -- CPU_WriteMem(4 bytes @ 0xE000201C) >0xE0 JTAG> >0x40 JTAG> >0x30 JTAG> >0x30 JTAG> >0x30 JTAG> >0x30 JTAG> >0x48 JTAG> >0x30 JTAG> >0x08 JTAG> (0024ms, 0538ms total)
T3C28 000:974  (0024ms, 0538ms total)
T3C28 000:974 Closed (0024ms, 0538ms total)
